<Qucs Dataset 0.0.15>
<indep time 11>
  +0.00000000000e+00
  +1.00000000000e-04
  +2.00000000000e-04
  +3.00000000000e-04
  +4.00000000000e-04
  +5.00000000000e-04
  +6.00000000000e-04
  +7.00000000000e-04
  +8.00000000000e-04
  +9.00000000000e-04
  +1.00000000000e-03
</indep>
<dep V1.It time>
  +0.00000000000e+00
  +2.54418823139e-15
  +2.65725011051e-14
  +4.33431289422e-14
  +5.55575381403e-14
  +6.67736092872e-14
  +9.89208322146e-14
  +9.22511301877e-14
  +1.44178946803e-13
  +1.76213766370e-13
  +2.06992192907e-13
</dep>
<dep _net0.Vt time>
  +0.00000000000e+00
  -2.54418823139e-12
  -2.65725011051e-11
  -4.33431289422e-11
  -5.55575381403e-11
  -6.67736092872e-11
  -9.89208322146e-11
  -9.22511301877e-11
  -1.44178946803e-10
  -1.76213766370e-10
  -2.06992192907e-10
</dep>
<dep _net1.Vt time>
  +0.00000000000e+00
  +4.43838248041e-10
  +8.66192371439e-10
  +3.64481605259e-10
  +1.72997220695e-09
  +3.09646114669e-09
  +7.16728636188e-10
  +2.10110334910e-09
  +3.42688054337e-09
  -2.67802986223e-09
  +6.11947731905e-09
</dep>
