<Qucs Dataset 0.0.15>
<indep x 10>
  +5.00000000000e+00
  +5.22222222222e+00
  +5.44444444444e+00
  +5.66666666667e+00
  +5.88888888889e+00
  +6.11111111111e+00
  +6.33333333333e+00
  +6.55555555556e+00
  +6.77777777778e+00
  +7.00000000000e+00
</indep>
<dep V1.I x>
  -1.46000000000e+00
  -1.42826086957e+00
  -1.39787234043e+00
  -1.36875000000e+00
  -1.34081632653e+00
  -1.31400000000e+00
  -1.28823529412e+00
  -1.26346153846e+00
  -1.23962264151e+00
  -1.21666666667e+00
</dep>
<dep Izeja.V x>
  +7.30000000000e+00
  +7.45869565217e+00
  +7.61063829787e+00
  +7.75625000000e+00
  +7.89591836735e+00
  +8.03000000000e+00
  +8.15882352941e+00
  +8.28269230769e+00
  +8.40188679245e+00
  +8.51666666667e+00
</dep>
<dep _net0.V x>
  +1.46000000000e+01
  +1.46000000000e+01
  +1.46000000000e+01
  +1.46000000000e+01
  +1.46000000000e+01
  +1.46000000000e+01
  +1.46000000000e+01
  +1.46000000000e+01
  +1.46000000000e+01
  +1.46000000000e+01
</dep>
